#Parameters = {s=10000; gmesh=10; pathy=-1; pathx=0; bmesh=10; beamy=1; beamx=0; sigma=3; flangez2=45.2; flangez1=42.8; endz=10; sloty=3; Slotx=23; tapz1=147.1; tapz2=171.1}
#"Frequency / GHz"	"Z (3) [Real/Imaginary Part] - Z [Re]"	"Z (3) [Real/Imaginary Part] - Z [Im]"
#-----------------------------------------------------------------------------------------------
0.0000000000000	0.0080645328061813	-6.6109349755725e-13
0.034130480899649	0.033275031120610	-0.019265593488911
0.068260961799298	0.0038206976040159	-0.018620163045083
0.10239144269895	-0.021124191979271	0.0071382116053077
0.13652192359860	-0.023426472734055	0.046050936507405
0.17065240449825	-0.0011264160743939	0.076320282385659
0.20478288539790	0.030768517660171	0.082067359735606
0.23891336629754	0.050133789415380	0.064344925296874
0.27304384719719	0.043521085089801	0.040758966236816
0.30717432809684	0.015392489905992	0.033109064704238
0.34130480899649	-0.014679790211406	0.052155641472798
0.37543528989614	-0.025752178235978	0.090138235365039
0.40956577079579	-0.010069498954884	0.12608523687561
0.44369625169544	0.021478362364905	0.14029622419933
0.47782673259509	0.046928611288243	0.12834220539903
0.51195721349474	0.048422852054793	0.10389660320402
0.54608769439439	0.024879587587687	0.089585981927987
0.58021817529404	-0.0073176682788903	0.10090872614027
0.61434865619369	-0.025690895579928	0.13549011032604
0.64847913709333	-0.017339973687268	0.17474499426388
0.68260961799298	0.011933613915628	0.19672187347582
0.71674009889263	0.041767254560372	0.19150395364851
0.75087057979228	0.051191695893614	0.16816407067756
0.78500106069193	0.033612052045745	0.14850181196488
0.81913154159158	0.0011682249055085	0.15181633337245
0.85326202249123	-0.023458108245067	0.18139820452567
0.88739250339088	-0.022987008049929	0.22217712969323
0.92152298429053	0.0022971344610658	0.25113964873628
0.95565346519018	0.034819026856992	0.25351191740304
0.98978394608983	0.051793539529913	0.23304491870716
1.0239144269895	0.041238965628500	0.20952747890321
1.0580449078891	0.010431131816507	0.20497829383251
1.0921753887888	-0.019164921875021	0.22822247567853
1.1263058696884	-0.026793099325214	0.26867057929450
1.1604363505881	-0.0070268756234849	0.30359860604091
1.1945668314877	0.026420092013451	0.31404496432493
1.2286973123874	0.050123948203647	0.29816530907873
1.2628277932870	0.047416946630690	0.27248931133089
1.2969582741867	0.020026675093478	0.26057554565907
1.3310887550863	-0.012988912145222	0.27643667749617
1.3652192359860	-0.028502483130449	0.31469630099279
1.3993497168856	-0.015548376423607	0.35422865983939
1.4334801977853	0.016941262623808	0.37289104499914
1.4676106786849	0.046260222351713	0.36306586111407
1.5017411595846	0.051792332740826	0.33706945997615
1.5358716404842	0.029467310404616	0.31866276227977
1.5700021213839	-0.0052337960517589	0.32645855359340
1.6041326022835	-0.028037045535684	0.36075993230365
1.6382630831832	-0.022871018150326	0.40331291920587
1.6723935640828	0.0068103316447883	0.42989501924301
1.7065240449825	0.040329055469110	0.42737418764836
1.7406545258821	0.054119774136030	0.40294620277848
1.7747850067818	0.038330094953985	0.37926227116409
1.8089154876814	0.0038128785380950	0.37864684811358
1.8430459685811	-0.025333487347569	0.40736421612430
1.8771764494807	-0.028607179532848	0.45112743078413
1.9113069303804	-0.0035235726388279	0.48496864225485
1.9454374112800	0.032482947913271	0.49069607039269
1.9795678921797	0.054160017207689	0.46974307541083
2.0136983730793	0.046106540987359	0.44232671457552
2.0478288539790	0.013721839349047	0.43338510174423
2.0819593348786	-0.020442234107481	0.45507819375486
2.1160898157782	-0.032402694617424	0.49811919126375
2.1502202966779	-0.013564347406349	0.53814264814140
2.1843507775775	0.023053289986532	0.55269175097021
2.2184812584772	0.051808961079916	0.53703748571367
2.2526117393768	0.052367665521837	0.50767864573945
2.2867422202765	0.024046894920824	0.49091142467075
2.3208727011761	-0.013509027978671	0.50443962500952
2.3550031820758	-0.033970622928107	0.54477573850959
2.3891336629754	-0.022789536820864	0.58956457806185
2.4232641438751	0.012432588139029	0.61308717232515
2.4573946247747	0.047075620029251	0.60436102050300
2.4915251056744	0.056707517974370	0.57503616075835
2.5256555865740	0.034255390458158	0.55138546018093
2.5597860674737	-0.0048124751305267	0.55595664612003
2.5939165483733	-0.033162692090705	0.59165307589453
2.6280470292730	-0.030741051792944	0.63948333009086
2.6621775101726	0.0010446204831485	0.67171432964632
2.6963079910723	0.040045859485517	0.67131776070574
2.7304384719719	0.058815852137707	0.64411049473120
2.7645689528716	0.043864725961645	0.61487497217110
2.7986994337712	0.0053443292147457	0.61010001677410
2.8328299146709	-0.029882575349576	0.63932405169039
2.8669603955705	-0.036960676730550	0.68822690174556
2.9010908764702	-0.010624400822515	0.72845920516051
2.9352213573698	0.030874258240232	0.73748147234259
2.9693518382695	0.058398362536464	0.71452857647991
3.0034823191691	0.052332028342627	0.68140304530154
3.0376128000688	0.016535733221875	0.66732578658666
3.0717432809684	-0.024108998057921	0.68843865834235
3.1058737618681	-0.041015315520027	0.73624432603143
3.1400042427677	-0.022018224215934	0.78331905004024
3.1741347236674	0.019860047136038	0.80244744539114
3.2082652045670	0.055273902274016	0.78583640404569
3.2423956854667	0.059111169945333	0.75083995813810
3.2765261663663	0.028241444740922	0.72800724008777
3.3106566472660	-0.015993106891968	0.73967862825672
3.3447871281656	-0.042566651705332	0.78412430737125
3.3789176090653	-0.032533137644300	0.83645025418503
3.4130480899649	0.0074169323840739	0.86592253849090
3.4471785708646	0.049392117565640	0.85756559734290
3.4813090517642	0.063722587202339	0.82297041407072
3.5154395326639	0.039896049930230	0.79240334238183
3.5495700135635	-0.0057848931164823	0.79368935414969
3.5837004944632	-0.041369682135133	0.83251606022992
3.6178309753628	-0.041637996646618	0.88813871755705
3.6519614562625	-0.0059990440379056	0.92770181661867
3.6860919371621	0.040780593642496	0.92929292894747
3.7202224180618	0.065746607140934	0.89755472850654
3.7543528989614	0.050920998069638	0.86076653287812
3.7884833798611	0.0062205063583066	0.85113790727169
3.8226138607607	-0.037222971565619	0.88215239608218
3.8567443416604	-0.048745781126498	0.93875681092240
3.8908748225600	-0.019843928939884	0.98764557595404
3.9250053034597	0.029540204090645	1.0005609992476
3.9591357843593	0.064741988195261	0.97429102911678
3.9932662652590	0.060652190397907	0.93329668827188
4.0273967461586	0.019587700778855	0.91277300880798
4.0615272270583	-0.029978963859145	0.93394334398281
4.0956577079579	-0.053212131710327	0.98888214304835
4.1297881888576	-0.033402635908523	1.0457321933758
4.1639186697572	0.015973077025518	1.0709027588695
4.1980491506568	0.060385743347749	1.0527370150331
4.2321796315565	0.068355117588463	1.0100669737290
4.2663101124561	0.033721265213776	0.97928826232472
4.3004405933558	-0.019687527412778	0.98890721915843
4.3345710742554	-0.054476552885390	1.0393226876205
4.3687015551551	-0.045905077361533	1.1021656094243
4.4028320360547	0.00051757243389715	1.1399603680082
4.4369625169544	0.052399925000959	1.1325161459465
4.4710929978540	0.073304421984384	1.0911679549171
4.5052234787537	0.047940072883600	1.0514650874306
4.5393539596533	-0.0064698415370384	1.0482256860306
4.5734844405530	-0.052030315345241	1.0910697435946
4.6076149214526	-0.056627807469592	1.1573264570904
4.6417454023523	-0.016561546786115	1.2076218262966
4.6758758832519	0.040495158958028	1.2133661198154
4.7100063641516	0.074601475795588	1.1769953692879
4.7441368450512	0.061469063574761	1.1305948809443
4.7782673259509	0.0096866031223445	1.1136960476180
4.8123978068505	-0.044987577680560	1.1456432540726
4.8465282877502	-0.064392645533904	1.2118476718163
4.8806587686498	-0.034646634395958	1.2736914921832
4.9147892495495	0.023948133980335	1.2953124016839
4.9489197304491	0.070807045822029	1.2686454258131
4.9830502113488	0.073193483226917	1.2192370444079
5.0171806922484	0.028992490814114	1.1886721052379
5.0513111731481	-0.031697132282695	1.2058646956426
5.0854416540477	-0.067284383716967	1.2670459639870
5.1195721349474	-0.053296776100277	1.3384056873463
5.1537026158470	0.00090375919292250	1.3793309242768
5.1878330967467	0.058695492641865	1.3701375478733
5.2219635776463	0.081240065014095	1.3252175326722
5.2560940585460	0.053545279921867	1.2828930036477
5.2902245394456	-0.0061983851074867	1.2795647880102
5.3243550203453	-0.059631799150354	1.3261819483850
5.3584855012449	-0.073751769238945	1.4027774260225
5.3926159821446	-0.040937045759556	1.4735697743956
5.4267464630442	0.019560145704556	1.5107365561028
5.4608769439439	0.077827029059106	1.5097773003363
5.4950074248435	0.11349801387606	1.4866556534158
5.5291379057432	0.12368483281147	1.4611497578554
5.5632683866428	0.10427006161517	1.4418090438015
5.5973988675425	1.9973176177165	1.2199413522629
5.6315293484421	0.24148932350368	1.3606578249312
5.6656598293418	0.18757390740572	1.3115538694029
5.6997903102414	0.11360087882952	1.2736785266057
5.7339207911411	0.018123695704241	1.2788457578282
5.7680512720407	-0.065563351998299	1.3410441526769
5.8021817529404	-0.099172387496506	1.4418838089997
5.8363122338400	-0.068080175495351	1.5370069624203
5.8704427147397	0.0044662526711728	1.5829266582293
5.9045731956393	0.069327358514198	1.5668624738174
5.9387036765390	0.083669367669621	1.5174850798055
5.9728341574386	0.041408618164608	1.4864638829824
6.0069646383383	-0.021093218444416	1.5115658160410
6.0410951192379	-0.051256391555726	1.5872183885139
6.0752256001376	-0.022848741591586	1.6661844286384
6.1093560810372	0.033065405263851	1.6968146894052
6.1434865619369	0.023011647639276	1.6834259168409
6.1776170428365	-0.28743407838127	1.8411081887995
6.2117475237362	1.4633152444982	-0.27951572019597
6.2458780046358	0.14517067035338	0.91655473504906
6.2800084855354	-0.15023340962484	1.2011716183532
6.3141389664351	-0.24085142384625	1.4793727208185
6.3482694473347	-0.16148978117956	1.7010021463701
6.3823999282344	0.010066818202232	1.7875404770063
6.4165304091340	0.15705414335473	1.7258696822286
6.4506608900337	0.18737392473559	1.5864714751797
6.4847913709333	0.088583605949263	1.4815038412993
6.5189218518330	-0.066701935526282	1.4935665709827
6.5530523327326	-0.17060280299056	1.6230975707669
6.5871828136323	-0.15270810151438	1.7900989580285
6.6213132945319	-0.027242293427239	1.8896598552473
6.6554437754316	0.11737076288449	1.8640995205772
6.6895742563312	0.17972569554422	1.7426759173426
6.7237047372309	0.11577657789219	1.6214375117432
6.7578352181305	-0.030223928171471	1.5966428240882
6.7919656990302	-0.15599268552201	1.6974499327610
6.8260961799298	-0.17240149100116	1.8647853502153
6.8602266608295	-0.066369478427762	1.9917962154412
6.8943571417291	0.088736457187764	1.9985058372015
6.9284876226288	0.18345513439771	1.8888231933278
6.9626181035284	0.14898795046478	1.7494422839861
6.9967485844281	0.0068653817768103	1.6901848916826
7.0308790653277	-0.14422338868851	1.7666272246197
7.0650095462274	-0.19658322489630	1.9392821947670
7.0991400271270	-0.10977675508315	2.0991549449192
7.1332705080267	0.058797641608932	2.1433072064877
7.1674009889263	0.19219632599494	2.0482966792502
7.2015314698260	0.23915070011428	1.8946645180226
7.2356619507256	0.055669952767176	1.7884863212602
7.2697924316253	-0.12264700346756	1.8328864637464
7.3039229125249	-0.21927509306989	2.0069158965355
7.3380533934246	-0.16155997532907	2.2029107873371
7.3721838743242	0.014810473024642	2.2936509352710
7.4063143552239	0.18726741254234	2.2225991506959
7.4404448361235	0.23015961935058	2.0475978250442
7.4745753170232	0.10419503336614	1.9054768184984
7.5087057979228	-0.11183672029621	1.9212303490793
7.5428362788225	-0.25965613816073	2.0930873136054
7.5769667597221	-0.23930943152636	2.3656565465876
7.6110972406218	-0.032322788779928	2.5520127252015
7.6452277215214	0.24690318273325	2.5478174759109
7.6793582024211	0.45542303713351	2.3687710886059
7.7134886833207	1.9055159523687	2.3995458100595
7.7476191642204	0.084301120986485	1.9688994686987
7.7817496451200	-0.089936340949002	2.0309829329933
7.8158801260197	-0.17680401023986	2.2258327290189
7.8500106069193	-0.097013760262830	2.4169694851777
7.8841410878190	0.082856953581544	2.4738528633865
7.9182715687186	0.23179550491744	2.3725776862846
7.9524020496183	0.19425554980441	2.1943718608875
7.9865325305179	0.018564285529330	2.1079885904988
8.0206630114176	-0.18942059715127	2.1996385900870
8.0547934923172	-0.27631421437550	2.4343746287024
8.0889239732169	-0.16979429171323	2.6678756453242
8.1230544541165	0.063751352783917	2.7479305821904
8.1571849350162	0.26006818648347	2.6263978091899
8.1913154159158	0.27258103771260	2.4007270815201
8.2254458968155	0.080580385453828	2.2508398819596
8.2595763777151	-0.18836550805493	2.3125504219700
8.2937068586147	-0.34283292457095	2.5759978239617
8.3278373395144	-0.26322015034733	2.8843711348667
8.3619678204140	0.0070164018412032	3.0394932010434
8.3960983013137	0.28388703532466	2.9441048369085
8.4302287822133	0.37121975014459	2.6585549614588
8.4643592631130	0.17428650695686	2.4392658143737
8.4984897440126	-0.16031063921236	2.4481139384270
8.5326202249123	-0.40950081083451	2.7321841185783
8.5667507058119	-0.38522614235558	3.1347112139467
8.6008811867116	-0.085312468421141	3.4021058912235
8.6350116676112	0.29156148419916	3.3620926949610
8.6691421485109	0.47531187145895	3.0553394924667
8.7032726294105	0.31530231397533	2.7226953325813
8.7374031103102	-0.10046212576832	2.6464871520484
8.7715335912098	-0.48907808860101	2.9489746433654
8.8056640721095	-0.56133735601647	3.4883427898943
8.8397945530091	-0.24176169260474	3.9427779880616
8.8739250339088	0.29027973299817	4.0290340192907
8.9080555148084	0.65602737014320	3.6944997630093
8.9421859957081	0.56632768614945	3.2087229603275
8.9763164766077	0.030158090536220	2.9883887588601
9.0104469575074	-0.61707859960617	3.3211095747371
9.0445774384070	-0.91288416049467	4.1480144648697
9.0787079193067	-0.58399137358032	5.0765212481998
9.1128384002063	0.26105769212309	5.8502478700636
9.1469688811060	0.87929631737173	4.7786230725317
9.1810993620056	1.0911417737786	4.3523491632452
9.2152298429053	0.38374864946106	3.9294162662097
9.2493603238049	-0.95222660917777	4.4624688755328
9.2834908047046	-2.1401016637535	6.5126928272887
9.3176212856042	-2.1720850988114	10.325801244465
9.3517517665039	0.30237484734765	16.959357146800
9.3858822474035	21.477966403688	46.198378743521
9.4200127283032	-5.1675625001584	-9.3912975324752
9.4541432092028	0.72628595427375	5.1332841273768
9.4882736901025	7.8505362287301	-8.7263816984259
9.5224041710021	1.3609067144180	-2.3340441601695
9.5565346519018	1.3285247684844	0.93080183457598
9.5906651328014	-0.76616462558234	-0.51478894061029
9.6247956137011	-0.31731402283743	1.2012902990780
9.6589260946007	0.29761067584790	2.0165550638087
9.6930565755004	0.92512750812949	2.1484678209579
9.7271870564000	0.76682860564622	1.9392469276307
9.7613175372997	0.056053741673698	2.5358417175485
9.7954480181993	14.208172263481	-6.8686147601859
9.8295784990990	2.0591082795825	-0.26318641254623
9.8637089799986	0.90205773281200	0.58791140267788
9.8978394608983	0.35003452529047	0.91795209631336
9.9319699417979	-0.062582047659533	1.4026993359723
9.9661004226976	-0.82842600846763	2.1195555693763
10.000230903597	-1.7215446660194	3.5003361260062
10.034361384497	-1.8355175871218	5.9925205302524
10.068491865397	-0.30075777052892	9.5851629947251
10.102622346296	4.7149759525921	14.817425116445
10.136752827196	42.013267754431	43.723460047622
10.170883308095	-8.1391211488703	-2.2734497981097
10.205013788995	0.42651122155696	1.7705849067516
10.239144269895	2.8180752472274	0.60603012144861
10.273274750794	2.5956437092759	-1.0517649938367
10.307405231694	1.0462425630029	-1.7599525104613
10.341535712594	-0.60045928917485	-1.1590580223008
10.375666193493	-1.4297094858166	0.29086995994082
10.409796674393	-1.1823049503214	1.7394621360851
10.443927155293	-0.26668261747352	2.4975833336827
10.478057636192	0.58694264822795	2.4375060124488
10.512188117092	0.82120695579637	2.0880455589049
10.546318597992	0.59141317757675	3.2093774174916
10.580449078891	-0.31472813003363	-1.7610617466403
10.614579559791	-1.0848079682839	0.67630940416179
10.648710040691	-1.0063404767043	1.9330970239964
10.682840521590	-0.35913993696588	2.6524391975244
10.716971002490	0.40835513203182	2.6809132117133
10.751101483389	0.80382708591421	2.1906513331900
10.785231964289	0.60811990302322	1.6405909562007
10.819362445189	0.0013277735017367	1.4857431505693
10.853492926088	-0.57649831116687	1.8959192057889
10.887623406988	-0.71834064693146	2.6888575581896
10.921753887888	-0.20755273458085	3.7024900551861
10.955884368787	1.0679640747067	3.8360550685294
10.990014849687	0.56257138419500	2.4294330576815
11.024145330587	0.61707901766107	2.2353106102116
11.058275811486	0.27653786229120	2.0178447537190
11.092406292386	-0.19968235236085	2.1627867099017
11.126536773286	-0.46614334105957	2.6419530537707
11.160667254185	-0.34745244079199	3.1791585146556
11.194797735085	0.055262508199439	3.4744882346858
11.228928215985	0.45294209173371	3.4241142399619
11.263058696884	0.60501856166321	3.2145313232215
11.297189177784	0.75716842732641	2.9483688581725
11.331319658684	0.14583089450883	2.7599699514285
11.365450139583	-0.19214440085840	3.2420146608481
11.399580620483	-0.11334469889228	3.8801441859841
11.433711101382	0.37577788793330	4.4723252469919
11.467841582282	2.4725574448543	5.5498255143541
11.501972063182	0.83039098241458	3.2015409141240
11.536102544081	0.94991220873921	3.3871115401857
11.570233024981	0.87371030073886	3.4695692928352
11.604363505881	0.89017321618667	3.7591969894015
11.638493986780	1.2909071044534	4.0596340291825
11.672624467680	1.9315415623179	3.8507801530977
11.706754948580	2.1678329890035	3.1879886039998
11.740885429479	1.8195518679158	2.7201627723087
11.775015910379	1.4589290341273	2.5859131989959
11.809146391279	1.0957176814600	2.6259223913220
11.843276872178	0.80812011592232	2.8857095230063
11.877407353078	0.75135687728733	3.2937391523228
11.911537833978	0.98899124895199	3.6542843953935
11.945668314877	1.4169050765798	3.7655319686021
11.979798795777	1.7989658803145	3.5548305850373
12.013929276677	1.9073847894394	3.1614004050213
12.048059757576	1.7118162203655	2.8574114400317
12.082190238476	1.4008082071013	2.8208732157939
12.116320719375	1.2741831947968	3.0580247807151
12.150451200275	1.2003608420724	3.2840250854913
12.184581681175	1.3926382270439	3.4440934404398
12.218712162074	1.6233320247174	3.4856717362003
12.252842642974	1.6617604825681	3.2444872359618
12.286973123874	1.5835126699397	3.3655699069154
12.321103604773	1.5853463865068	2.5419139079012
12.355234085673	1.7317299466038	3.0517514551174
12.389364566573	1.5763907262681	3.2190399467443
12.423495047472	1.7961452706128	3.2525728133100
12.457625528372	1.9948275166627	3.1253182595853
12.491756009272	1.7902640869745	2.9410085965558
12.525886490171	2.6726266763048	1.6630747349606
12.560016971071	1.6565603190439	2.2678728659127
12.594147451971	2.2136419019906	2.8274299651701
12.628277932870	1.7928666449685	2.0498940691257
12.662408413770	1.3541638444706	2.7207205229694
12.696538894669	1.5152706840941	2.9607297323278
12.730669375569	1.7174932416786	2.9804147639918
12.764799856469	1.9397315998078	2.6628512767096
12.798930337368	1.5045876336879	2.5446823019753
12.833060818268	1.3382448699806	2.6664768961999
12.867191299168	1.2889205901725	2.8539821925740
12.901321780067	1.3853098824920	3.0093409299438
12.935452260967	1.5396726314783	3.0373896897316
12.969582741867	1.7448713028160	2.8578399455066
13.003713222766	1.6210843322324	2.7573948449387
